
T2730 000:507 SEGGER J-Link V4.96d Log File (0001ms, 0287ms total)
T2730 000:507 DLL Compiled: Jan 29 2015 11:45:37 (0001ms, 0287ms total)
T2730 000:507 Logging started @ 2018-05-16 15:19 (0001ms, 0287ms total)
T2730 000:508 JLINK_SetWarnOutHandler(...) (0000ms, 0287ms total)
T2730 000:508 JLINK_OpenEx(...)
Firmware: J-Link ARM-OB STM32 compiled Aug 22 2012 19:52:04
Hardware: V7.00
S/N: 20090928
Feature(s): RDI,FlashDL,FlashBP,JFlash,GDBFull  returns O.K. (0276ms, 0563ms total)
T2730 000:784 JLINK_SetErrorOutHandler(...) (0000ms, 0563ms total)
T2730 000:784 JLINK_ExecCommand("ProjectFile = "E:\JW901\Èí¼þ\embeded\APOLLO2\SVN\Bootloader\Project\boards\apollo2_evb\examples\Bootloader\keil\JLinkSettings.ini"", ...)Device "UNSPECIFIED" selected.  returns 0x00 (0010ms, 0573ms total)
T2730 000:804 JLINK_ExecCommand("Device = AMAPH1KK-KBR", ...)Device "UNSPECIFIED" selected.  returns 0x00 (0003ms, 0576ms total)
T2730 000:807 JLINK_ExecCommand("DisableConnectionTimeout", ...)  returns 0x01 (0000ms, 0576ms total)
T2730 000:807 JLINK_GetHardwareVersion()  returns 0x11170 (0000ms, 0576ms total)
T2730 000:807 JLINK_GetDLLVersion()  returns 49604 (0000ms, 0576ms total)
T2730 000:807 JLINK_GetFirmwareString(...) (0000ms, 0576ms total)
T2730 000:816 JLINK_GetDLLVersion()  returns 49604 (0000ms, 0576ms total)
T2730 000:816 JLINK_GetCompileDateTime() (0000ms, 0576ms total)
T2730 000:818 JLINK_GetFirmwareString(...) (0000ms, 0576ms total)
T2730 000:821 JLINK_GetHardwareVersion()  returns 0x11170 (0000ms, 0576ms total)
T2730 000:829 JLINK_TIF_Select(JLINKARM_TIF_SWD)  returns 0x00 (0003ms, 0579ms total)
T2730 000:832 JLINK_SetSpeed(1000) (0001ms, 0580ms total)
T2730 000:833 JLINK_GetId() >0x108 TIF>Found SWD-DP with ID 0x2BA01477 >0x0D TIF> >0x21 TIF> >0x0D TIF> >0x28 TIF> >0x0D TIF> >0x28 TIF> >0x0D TIF> >0x21 TIF> >0x0D TIF> >0x28 TIF> >0x0D TIF> >0x21 TIF> >0x0D TIF> >0x21 TIF> >0x0D TIF> >0x21 TIF> >0x0D TIF> >0x21 TIF> >0x0D TIF> >0x28 TIF> >0x0D TIF> >0x28 TIF> >0x0D TIF> >0x21 TIF> >0x0D TIF> >0x28 TIF> >0x0D TIF> >0x28 TIF> >0x0D TIF> >0x28 TIF> >0x0D TIF> >0x21 TIF> >0x0D TIF> >0x21 TIF> >0x0D TIF> >0x28 TIF> >0x0D TIF> >0x21 TIF> >0x0D TIF>
 >0x21 TIF>Found Cortex-M4 r0p1, Little endian. -- CPU_WriteMem(4 bytes @ 0xE0002000) -- CPU_ReadMem(4 bytes @ 0xE000EDF0) -- CPU_ReadMem(4 bytes @ 0xE0002000)FPUnit: 6 code (BP) slots and 2 literal slots -- CPU_ReadMem(4 bytes @ 0xE000EDFC) -- CPU_ReadMem(4 bytes @ 0xE0001000) -- CPU_WriteMem(4 bytes @ 0xE0001000) -- CPU_ReadMem(4 bytes @ 0xE000ED88) -- CPU_WriteMem(4 bytes @ 0xE000ED88) -- CPU_ReadMem(4 bytes @ 0xE000ED88) -- CPU_WriteMem(4 bytes @ 0xE000ED88) -- CPU_ReadMem(4 bytes @ 0xE00FF010)
TPIU fitted. -- CPU_ReadMem(4 bytes @ 0xE00FF014) -- CPU_ReadMem(4 bytes @ 0xE00FF018) >0x0D TIF> >0x21 TIF>  returns 0x2BA01477 (0077ms, 0657ms total)
T2730 000:910 JLINK_GetDLLVersion()  returns 49604 (0000ms, 0657ms total)
T2730 000:910 JLINK_CORE_GetFound()  returns 0xE0000FF (0000ms, 0657ms total)
T2730 000:910 JLINK_GetDebugInfo(0x100) -- Value=0xE00FF003  returns 0x00 (0000ms, 0657ms total)
T2730 000:913 JLINK_ReadMem (0xE00FF000, 0x0020 Bytes, ...) -- CPU is running -- CPU_ReadMem(32 bytes @ 0xE00FF000) - Data: 03 F0 F0 FF 03 20 F0 FF 03 30 F0 FF 03 10 F0 FF ...  returns 0x00 (0002ms, 0659ms total)
T2730 000:915 JLINK_ReadMem (0xE000EFF0, 0x0010 Bytes, ...) -- CPU is running -- CPU_ReadMem(16 bytes @ 0xE000EFF0) - Data: 0D 00 00 00 E0 00 00 00 05 00 00 00 B1 00 00 00  returns 0x00 (0002ms, 0661ms total)
T2730 000:917 JLINK_ReadMem (0xE000EFD0, 0x0020 Bytes, ...) -- CPU is running -- CPU_ReadMem(32 bytes @ 0xE000EFD0) - Data: 04 00 00 00 00 00 00 00 00 00 00 00 00 00 00 00 ...  returns 0x00 (0002ms, 0663ms total)
T2730 000:919 JLINK_ReadMem (0xE0001FF0, 0x0010 Bytes, ...) -- CPU is running -- CPU_ReadMem(16 bytes @ 0xE0001FF0) - Data: 0D 00 00 00 E0 00 00 00 05 00 00 00 B1 00 00 00  returns 0x00 (0002ms, 0665ms total)
T2730 000:921 JLINK_ReadMem (0xE0001FD0, 0x0020 Bytes, ...) -- CPU is running -- CPU_ReadMem(32 bytes @ 0xE0001FD0) - Data: 04 00 00 00 00 00 00 00 00 00 00 00 00 00 00 00 ...  returns 0x00 (0002ms, 0667ms total)
T2730 000:923 JLINK_ReadMem (0xE0002FF0, 0x0010 Bytes, ...) -- CPU is running -- CPU_ReadMem(16 bytes @ 0xE0002FF0) - Data: 0D 00 00 00 E0 00 00 00 05 00 00 00 B1 00 00 00  returns 0x00 (0002ms, 0669ms total)
T2730 000:925 JLINK_ReadMem (0xE0002FD0, 0x0020 Bytes, ...) -- CPU is running -- CPU_ReadMem(32 bytes @ 0xE0002FD0) - Data: 04 00 00 00 00 00 00 00 00 00 00 00 00 00 00 00 ...  returns 0x00 (0002ms, 0671ms total)
T2730 000:927 JLINK_ReadMem (0xE0000FF0, 0x0010 Bytes, ...) -- CPU is running -- CPU_ReadMem(16 bytes @ 0xE0000FF0) - Data: 0D 00 00 00 E0 00 00 00 05 00 00 00 B1 00 00 00  returns 0x00 (0002ms, 0673ms total)
T2730 000:929 JLINK_ReadMem (0xE0000FD0, 0x0020 Bytes, ...) -- CPU is running -- CPU_ReadMem(32 bytes @ 0xE0000FD0) - Data: 04 00 00 00 00 00 00 00 00 00 00 00 00 00 00 00 ...  returns 0x00 (0002ms, 0675ms total)
T2730 000:931 JLINK_ReadMem (0xE0040FF0, 0x0010 Bytes, ...) -- CPU is running -- CPU_ReadMem(16 bytes @ 0xE0040FF0) - Data: 0D 00 00 00 90 00 00 00 05 00 00 00 B1 00 00 00  returns 0x00 (0002ms, 0677ms total)
T2730 000:933 JLINK_ReadMem (0xE0040FD0, 0x0020 Bytes, ...) -- CPU is running -- CPU_ReadMem(32 bytes @ 0xE0040FD0) - Data: 04 00 00 00 00 00 00 00 00 00 00 00 00 00 00 00 ...  returns 0x00 (0002ms, 0679ms total)
T2730 000:935 JLINK_ReadMemU32(0xE000EF40, 0x0001 Items, ...) -- CPU is running -- CPU_ReadMem(4 bytes @ 0xE000EF40) - Data: 21 00 11 10  returns 0x01 (0002ms, 0681ms total)
T2730 000:937 JLINK_ReadMemU32(0xE000EF44, 0x0001 Items, ...) -- CPU is running -- CPU_ReadMem(4 bytes @ 0xE000EF44) - Data: 11 00 00 11  returns 0x01 (0002ms, 0683ms total)
T2730 000:939 JLINK_ReadMemU32(0xE000ED00, 0x0001 Items, ...) -- CPU is running -- CPU_ReadMem(4 bytes @ 0xE000ED00) - Data: 41 C2 0F 41  returns 0x01 (0002ms, 0685ms total)
T2730 000:941 JLINK_SetResetType(JLINKARM_RESET_TYPE_NORMAL)  returns JLINKARM_RESET_TYPE_NORMAL (0000ms, 0685ms total)
T2730 000:941 JLINK_Reset() -- CPU is running -- CPU_WriteMem(4 bytes @ 0xE000EDF0) -- CPU is running -- CPU_WriteMem(4 bytes @ 0xE000EDFC) >0x35 TIF> -- CPU is running -- CPU_WriteMem(4 bytes @ 0xE000ED0C) -- CPU is running -- CPU_ReadMem(4 bytes @ 0xE000EDF0) -- CPU is running -- CPU_ReadMem(4 bytes @ 0xE000EDF0) -- CPU is running -- CPU_ReadMem(4 bytes @ 0xE000EDF0) -- CPU is running -- CPU_WriteMem(4 bytes @ 0xE000EDF0) -- CPU is running -- CPU_WriteMem(4 bytes @ 0xE000EDFC) -- CPU is running
 -- CPU_ReadMem(4 bytes @ 0xE000EDF0) -- CPU_WriteMem(4 bytes @ 0xE0002000) -- CPU_ReadMem(4 bytes @ 0xE000EDFC) -- CPU_ReadMem(4 bytes @ 0xE0001000) (0038ms, 0723ms total)
T2730 000:979 JLINK_Halt()  returns 0x00 (0000ms, 0723ms total)
T2730 000:979 JLINK_IsHalted()  returns TRUE (0001ms, 0724ms total)
T2730 000:980 JLINK_ReadMemU32(0xE000EDF0, 0x0001 Items, ...) -- CPU_ReadMem(4 bytes @ 0xE000EDF0) - Data: 03 00 03 00  returns 0x01 (0001ms, 0724ms total)
T2730 000:981 JLINK_WriteU32(0xE000EDF0, 0xA05F0003) -- CPU_WriteMem(4 bytes @ 0xE000EDF0)  returns 0x00 (0002ms, 0726ms total)
T2730 000:983 JLINK_WriteU32(0xE000EDFC, 0x01000000) -- CPU_WriteMem(4 bytes @ 0xE000EDFC)  returns 0x00 (0002ms, 0728ms total)
T2730 001:003 JLINK_GetHWStatus(...)  returns 0x00 (0002ms, 0730ms total)
T2730 001:014 JLINK_GetNumBPUnits(Type = 0xFFFFFF00)  returns 0x06 (0002ms, 0732ms total)
T2730 001:016 JLINK_GetNumBPUnits(Type = 0xF0)  returns 0x2000 (0000ms, 0732ms total)
T2730 001:016 JLINK_GetNumWPUnits()  returns 0x04 (0000ms, 0732ms total)
T2730 001:023 JLINK_GetSpeed()  returns 0x3E8 (0000ms, 0732ms total)
T2730 001:028 JLINK_ReadMemU32(0xE000E004, 0x0001 Items, ...) -- CPU_ReadMem(4 bytes @ 0xE000E004) - Data: 00 00 00 00  returns 0x01 (0002ms, 0734ms total)
T2730 001:030 JLINK_ReadMemU32(0xE000E004, 0x0001 Items, ...) -- CPU_ReadMem(4 bytes @ 0xE000E004) - Data: 00 00 00 00  returns 0x01 (0001ms, 0735ms total)
T2730 001:031 JLINK_WriteMem(0xE0001000, 0x001C Bytes, ...) - Data: 01 00 00 00 00 00 00 00 00 00 00 00 00 00 00 00 ... -- CPU_WriteMem(28 bytes @ 0xE0001000)  returns 0x1C (0002ms, 0737ms total)
T2730 001:033 JLINK_ReadMem (0xE0001000, 0x001C Bytes, ...) -- CPU_ReadMem(28 bytes @ 0xE0001000) - Data: 01 00 00 40 00 00 00 00 00 00 00 00 00 00 00 00 ...  returns 0x00 (0002ms, 0739ms total)
T2730 001:035 JLINK_Halt()  returns 0x00 (0000ms, 0739ms total)
T2730 001:035 JLINK_IsHalted()  returns TRUE (0000ms, 0739ms total)
T2730 001:038 JLINK_WriteMem(0x10000000, 0x019C Bytes, ...) - Data: 00 BE 0A E0 0D 78 2D 06 68 40 08 24 40 00 00 D3 ... -- CPU_WriteMem(412 bytes @ 0x10000000)  returns 0x19C (0015ms, 0754ms total)
T2730 001:053 JLINK_WriteReg(R0, 0x00000000)  returns 0x00 (0000ms, 0754ms total)
T2730 001:053 JLINK_WriteReg(R1, 0x02DC6C00)  returns 0x00 (0000ms, 0754ms total)
T2730 001:053 JLINK_WriteReg(R2, 0x00000001)  returns 0x00 (0000ms, 0754ms total)
T2730 001:053 JLINK_WriteReg(R3, 0x00000000)  returns 0x00 (0000ms, 0754ms total)
T2730 001:053 JLINK_WriteReg(R4, 0x00000000)  returns 0x00 (0000ms, 0754ms total)
T2730 001:053 JLINK_WriteReg(R5, 0x00000000)  returns 0x00 (0000ms, 0754ms total)
T2730 001:054 JLINK_WriteReg(R6, 0x00000000)  returns 0x00 (0000ms, 0755ms total)
T2730 001:054 JLINK_WriteReg(R7, 0x00000000)  returns 0x00 (0000ms, 0755ms total)
T2730 001:054 JLINK_WriteReg(R8, 0x00000000)  returns 0x00 (0000ms, 0755ms total)
T2730 001:054 JLINK_WriteReg(R9, 0x10000178)  returns 0x00 (0000ms, 0755ms total)
T2730 001:054 JLINK_WriteReg(R10, 0x00000000)  returns 0x00 (0000ms, 0755ms total)
T2730 001:054 JLINK_WriteReg(R11, 0x00000000)  returns 0x00 (0000ms, 0755ms total)
T2730 001:054 JLINK_WriteReg(R12, 0x00000000)  returns 0x00 (0000ms, 0755ms total)
T2730 001:054 JLINK_WriteReg(R13 (SP), 0x10004000)  returns 0x00 (0000ms, 0755ms total)
T2730 001:054 JLINK_WriteReg(R14, 0x10000001)  returns 0x00 (0000ms, 0755ms total)
T2730 001:054 JLINK_WriteReg(R15 (PC), 0x10000038)  returns 0x00 (0000ms, 0755ms total)
T2730 001:054 JLINK_WriteReg(XPSR, 0x01000000)  returns 0x00 (0000ms, 0755ms total)
T2730 001:054 JLINK_WriteReg(MSP, 0x10004000)  returns 0x00 (0000ms, 0755ms total)
T2730 001:054 JLINK_WriteReg(PSP, 0x10004000)  returns 0x00 (0001ms, 0756ms total)
T2730 001:055 JLINK_WriteReg(CFBP, 0x00000000)  returns 0x00 (0000ms, 0756ms total)
T2730 001:055 JLINK_SetBPEx(Addr = 0x10000000, Type = 0xFFFFFFF2)  returns 0x00000001 (0000ms, 0756ms total)
T2730 001:055 JLINK_Go() -- CPU_WriteMem(4 bytes @ 0xE0002000) -- CPU_WriteMem(4 bytes @ 0xE0002008) -- CPU_WriteMem(4 bytes @ 0xE000200C) -- CPU_WriteMem(4 bytes @ 0xE0002010) -- CPU_WriteMem(4 bytes @ 0xE0002014) -- CPU_WriteMem(4 bytes @ 0xE0002018) -- CPU_WriteMem(4 bytes @ 0xE000201C) -- CPU_WriteMem(4 bytes @ 0xE0001004) (0014ms, 0770ms total)
T2730 001:069 JLINK_IsHalted()  returns TRUE (0009ms, 0779ms total)
T2730 001:078 JLINK_ReadReg(R15 (PC))  returns 0x10000000 (0000ms, 0770ms total)
T2730 001:078 JLINK_ClrBPEx(BPHandle = 0x00000001)  returns 0x00 (0001ms, 0771ms total)
T2730 001:079 JLINK_ReadReg(R0)  returns 0x00000000 (0000ms, 0771ms total)
T2730 001:079 JLINK_WriteReg(R0, 0x00000000)  returns 0x00 (0001ms, 0772ms total)
T2730 001:080 JLINK_WriteReg(R1, 0x00002000)  returns 0x00 (0000ms, 0772ms total)
T2730 001:080 JLINK_WriteReg(R2, 0x000000FF)  returns 0x00 (0000ms, 0772ms total)
T2730 001:080 JLINK_WriteReg(R3, 0x00000000)  returns 0x00 (0000ms, 0772ms total)
T2730 001:080 JLINK_WriteReg(R4, 0x00000000)  returns 0x00 (0000ms, 0772ms total)
T2730 001:080 JLINK_WriteReg(R5, 0x00000000)  returns 0x00 (0000ms, 0772ms total)
T2730 001:081 JLINK_WriteReg(R6, 0x00000000)  returns 0x00 (0000ms, 0773ms total)
T2730 001:081 JLINK_WriteReg(R7, 0x00000000)  returns 0x00 (0000ms, 0773ms total)
T2730 001:081 JLINK_WriteReg(R8, 0x00000000)  returns 0x00 (0000ms, 0773ms total)
T2730 001:081 JLINK_WriteReg(R9, 0x10000178)  returns 0x00 (0000ms, 0773ms total)
T2730 001:081 JLINK_WriteReg(R10, 0x00000000)  returns 0x00 (0000ms, 0773ms total)
T2730 001:081 JLINK_WriteReg(R11, 0x00000000)  returns 0x00 (0001ms, 0774ms total)
T2730 001:082 JLINK_WriteReg(R12, 0x00000000)  returns 0x00 (0000ms, 0774ms total)
T2730 001:082 JLINK_WriteReg(R13 (SP), 0x10004000)  returns 0x00 (0000ms, 0774ms total)
T2730 001:082 JLINK_WriteReg(R14, 0x10000001)  returns 0x00 (0000ms, 0774ms total)
T2730 001:082 JLINK_WriteReg(R15 (PC), 0x10000020)  returns 0x00 (0000ms, 0774ms total)
T2730 001:082 JLINK_WriteReg(XPSR, 0x01000000)  returns 0x00 (0000ms, 0774ms total)
T2730 001:082 JLINK_WriteReg(MSP, 0x10004000)  returns 0x00 (0001ms, 0775ms total)
T2730 001:083 JLINK_WriteReg(PSP, 0x10004000)  returns 0x00 (0000ms, 0775ms total)
T2730 001:083 JLINK_WriteReg(CFBP, 0x00000000)  returns 0x00 (0000ms, 0775ms total)
T2730 001:083 JLINK_SetBPEx(Addr = 0x10000000, Type = 0xFFFFFFF2)  returns 0x00000002 (0000ms, 0775ms total)
T2730 001:083 JLINK_Go() -- CPU_WriteMem(4 bytes @ 0xE0002000) (0006ms, 0781ms total)
T2730 001:089 JLINK_IsHalted()  returns TRUE (0009ms, 0790ms total)
T2730 001:098 JLINK_ReadReg(R15 (PC))  returns 0x10000000 (0000ms, 0781ms total)
T2730 001:098 JLINK_ClrBPEx(BPHandle = 0x00000002)  returns 0x00 (0000ms, 0781ms total)
T2730 001:098 JLINK_ReadReg(R0)  returns 0x00000001 (0000ms, 0781ms total)
T2730 001:098 JLINK_WriteReg(R0, 0x00000000)  returns 0x00 (0001ms, 0782ms total)
T2730 001:099 JLINK_WriteReg(R1, 0x00002000)  returns 0x00 (0000ms, 0782ms total)
T2730 001:099 JLINK_WriteReg(R2, 0x000000FF)  returns 0x00 (0000ms, 0782ms total)
T2730 001:099 JLINK_WriteReg(R3, 0x00000000)  returns 0x00 (0000ms, 0782ms total)
T2730 001:099 JLINK_WriteReg(R4, 0x00000000)  returns 0x00 (0000ms, 0782ms total)
T2730 001:099 JLINK_WriteReg(R5, 0x00000000)  returns 0x00 (0000ms, 0782ms total)
T2730 001:099 JLINK_WriteReg(R6, 0x00000000)  returns 0x00 (0001ms, 0783ms total)
T2730 001:100 JLINK_WriteReg(R7, 0x00000000)  returns 0x00 (0000ms, 0783ms total)
T2730 001:100 JLINK_WriteReg(R8, 0x00000000)  returns 0x00 (0000ms, 0783ms total)
T2730 001:100 JLINK_WriteReg(R9, 0x10000178)  returns 0x00 (0000ms, 0783ms total)
T2730 001:100 JLINK_WriteReg(R10, 0x00000000)  returns 0x00 (0000ms, 0783ms total)
T2730 001:100 JLINK_WriteReg(R11, 0x00000000)  returns 0x00 (0000ms, 0783ms total)
T2730 001:101 JLINK_WriteReg(R12, 0x00000000)  returns 0x00 (0000ms, 0784ms total)
T2730 001:101 JLINK_WriteReg(R13 (SP), 0x10004000)  returns 0x00 (0000ms, 0784ms total)
T2730 001:101 JLINK_WriteReg(R14, 0x10000001)  returns 0x00 (0000ms, 0784ms total)
T2730 001:101 JLINK_WriteReg(R15 (PC), 0x1000005E)  returns 0x00 (0000ms, 0784ms total)
T2730 001:101 JLINK_WriteReg(XPSR, 0x01000000)  returns 0x00 (0000ms, 0784ms total)
T2730 001:101 JLINK_WriteReg(MSP, 0x10004000)  returns 0x00 (0001ms, 0785ms total)
T2730 001:102 JLINK_WriteReg(PSP, 0x10004000)  returns 0x00 (0000ms, 0785ms total)
T2730 001:102 JLINK_WriteReg(CFBP, 0x00000000)  returns 0x00 (0000ms, 0785ms total)
T2730 001:102 JLINK_SetBPEx(Addr = 0x10000000, Type = 0xFFFFFFF2)  returns 0x00000003 (0000ms, 0785ms total)
T2730 001:102 JLINK_Go() -- CPU_WriteMem(4 bytes @ 0xE0002000) (0006ms, 0791ms total)
T2730 001:108 JLINK_IsHalted()  returns FALSE (0002ms, 0793ms total)
T2730 001:169 JLINK_IsHalted()  returns TRUE (0008ms, 0799ms total)
T2730 001:177 JLINK_ReadReg(R15 (PC))  returns 0x10000000 (0000ms, 0791ms total)
T2730 001:177 JLINK_ClrBPEx(BPHandle = 0x00000003)  returns 0x00 (0000ms, 0791ms total)
T2730 001:177 JLINK_ReadReg(R0)  returns 0x00000000 (0000ms, 0791ms total)
T2730 001:178 JLINK_WriteReg(R0, 0x00002000)  returns 0x00 (0000ms, 0791ms total)
T2730 001:178 JLINK_WriteReg(R1, 0x00002000)  returns 0x00 (0000ms, 0791ms total)
T2730 001:178 JLINK_WriteReg(R2, 0x000000FF)  returns 0x00 (0000ms, 0791ms total)
T2730 001:178 JLINK_WriteReg(R3, 0x00000000)  returns 0x00 (0000ms, 0791ms total)
T2730 001:178 JLINK_WriteReg(R4, 0x00000000)  returns 0x00 (0000ms, 0791ms total)
T2730 001:178 JLINK_WriteReg(R5, 0x00000000)  returns 0x00 (0000ms, 0791ms total)
T2730 001:178 JLINK_WriteReg(R6, 0x00000000)  returns 0x00 (0000ms, 0791ms total)
T2730 001:178 JLINK_WriteReg(R7, 0x00000000)  returns 0x00 (0000ms, 0791ms total)
T2730 001:178 JLINK_WriteReg(R8, 0x00000000)  returns 0x00 (0000ms, 0791ms total)
T2730 001:178 JLINK_WriteReg(R9, 0x10000178)  returns 0x00 (0000ms, 0791ms total)
T2730 001:178 JLINK_WriteReg(R10, 0x00000000)  returns 0x00 (0000ms, 0791ms total)
T2730 001:178 JLINK_WriteReg(R11, 0x00000000)  returns 0x00 (0000ms, 0791ms total)
T2730 001:178 JLINK_WriteReg(R12, 0x00000000)  returns 0x00 (0000ms, 0791ms total)
T2730 001:178 JLINK_WriteReg(R13 (SP), 0x10004000)  returns 0x00 (0000ms, 0791ms total)
T2730 001:179 JLINK_WriteReg(R14, 0x10000001)  returns 0x00 (0000ms, 0792ms total)
T2730 001:179 JLINK_WriteReg(R15 (PC), 0x10000020)  returns 0x00 (0000ms, 0792ms total)
T2730 001:179 JLINK_WriteReg(XPSR, 0x01000000)  returns 0x00 (0000ms, 0792ms total)
T2730 001:179 JLINK_WriteReg(MSP, 0x10004000)  returns 0x00 (0000ms, 0792ms total)
T2730 001:179 JLINK_WriteReg(PSP, 0x10004000)  returns 0x00 (0000ms, 0792ms total)
T2730 001:179 JLINK_WriteReg(CFBP, 0x00000000)  returns 0x00 (0000ms, 0792ms total)
T2730 001:179 JLINK_SetBPEx(Addr = 0x10000000, Type = 0xFFFFFFF2)  returns 0x00000004 (0000ms, 0792ms total)
T2730 001:179 JLINK_Go() -- CPU_WriteMem(4 bytes @ 0xE0002000) (0006ms, 0798ms total)
T2730 001:185 JLINK_IsHalted()  returns TRUE (0008ms, 0806ms total)
T2730 001:193 JLINK_ReadReg(R15 (PC))  returns 0x10000000 (0000ms, 0798ms total)
T2730 001:193 JLINK_ClrBPEx(BPHandle = 0x00000004)  returns 0x00 (0000ms, 0798ms total)
T2730 001:193 JLINK_ReadReg(R0)  returns 0x00000001 (0000ms, 0798ms total)
T2730 001:193 JLINK_WriteReg(R0, 0x00002000)  returns 0x00 (0000ms, 0798ms total)
T2730 001:193 JLINK_WriteReg(R1, 0x00002000)  returns 0x00 (0000ms, 0798ms total)
T2730 001:193 JLINK_WriteReg(R2, 0x000000FF)  returns 0x00 (0000ms, 0798ms total)
T2730 001:193 JLINK_WriteReg(R3, 0x00000000)  returns 0x00 (0000ms, 0798ms total)
T2730 001:193 JLINK_WriteReg(R4, 0x00000000)  returns 0x00 (0001ms, 0799ms total)
T2730 001:194 JLINK_WriteReg(R5, 0x00000000)  returns 0x00 (0000ms, 0799ms total)
T2730 001:194 JLINK_WriteReg(R6, 0x00000000)  returns 0x00 (0000ms, 0799ms total)
T2730 001:194 JLINK_WriteReg(R7, 0x00000000)  returns 0x00 (0000ms, 0799ms total)
T2730 001:194 JLINK_WriteReg(R8, 0x00000000)  returns 0x00 (0000ms, 0799ms total)
T2730 001:194 JLINK_WriteReg(R9, 0x10000178)  returns 0x00 (0000ms, 0799ms total)
T2730 001:194 JLINK_WriteReg(R10, 0x00000000)  returns 0x00 (0000ms, 0799ms total)
T2730 001:194 JLINK_WriteReg(R11, 0x00000000)  returns 0x00 (0000ms, 0799ms total)
T2730 001:194 JLINK_WriteReg(R12, 0x00000000)  returns 0x00 (0000ms, 0799ms total)
T2730 001:194 JLINK_WriteReg(R13 (SP), 0x10004000)  returns 0x00 (0000ms, 0799ms total)
T2730 001:194 JLINK_WriteReg(R14, 0x10000001)  returns 0x00 (0000ms, 0799ms total)
T2730 001:194 JLINK_WriteReg(R15 (PC), 0x1000005E)  returns 0x00 (0000ms, 0799ms total)
T2730 001:194 JLINK_WriteReg(XPSR, 0x01000000)  returns 0x00 (0000ms, 0799ms total)
T2730 001:194 JLINK_WriteReg(MSP, 0x10004000)  returns 0x00 (0000ms, 0799ms total)
T2730 001:194 JLINK_WriteReg(PSP, 0x10004000)  returns 0x00 (0000ms, 0799ms total)
T2730 001:194 JLINK_WriteReg(CFBP, 0x00000000)  returns 0x00 (0000ms, 0799ms total)
T2730 001:194 JLINK_SetBPEx(Addr = 0x10000000, Type = 0xFFFFFFF2)  returns 0x00000005 (0000ms, 0799ms total)
T2730 001:194 JLINK_Go() -- CPU_WriteMem(4 bytes @ 0xE0002000) (0006ms, 0805ms total)
T2730 001:200 JLINK_IsHalted()  returns FALSE (0001ms, 0806ms total)
T2730 001:202 JLINK_IsHalted()  returns FALSE (0001ms, 0806ms total)
T2730 001:204 JLINK_IsHalted()  returns FALSE (0001ms, 0806ms total)
T2730 001:206 JLINK_IsHalted()  returns FALSE (0001ms, 0806ms total)
T2730 001:208 JLINK_IsHalted()  returns FALSE (0001ms, 0806ms total)
T2730 001:210 JLINK_IsHalted()  returns FALSE (0001ms, 0806ms total)
T2730 001:220 JLINK_IsHalted()  returns TRUE (0008ms, 0813ms total)
T2730 001:228 JLINK_ReadReg(R15 (PC))  returns 0x10000000 (0000ms, 0805ms total)
T2730 001:228 JLINK_ClrBPEx(BPHandle = 0x00000005)  returns 0x00 (0000ms, 0805ms total)
T2730 001:228 JLINK_ReadReg(R0)  returns 0x00000000 (0000ms, 0805ms total)
T2730 001:229 JLINK_WriteReg(R0, 0x00004000)  returns 0x00 (0000ms, 0805ms total)
T2730 001:229 JLINK_WriteReg(R1, 0x00002000)  returns 0x00 (0000ms, 0805ms total)
T2730 001:229 JLINK_WriteReg(R2, 0x000000FF)  returns 0x00 (0000ms, 0805ms total)
T2730 001:229 JLINK_WriteReg(R3, 0x00000000)  returns 0x00 (0000ms, 0805ms total)
T2730 001:229 JLINK_WriteReg(R4, 0x00000000)  returns 0x00 (0000ms, 0805ms total)
T2730 001:229 JLINK_WriteReg(R5, 0x00000000)  returns 0x00 (0000ms, 0805ms total)
T2730 001:229 JLINK_WriteReg(R6, 0x00000000)  returns 0x00 (0000ms, 0805ms total)
T2730 001:229 JLINK_WriteReg(R7, 0x00000000)  returns 0x00 (0000ms, 0805ms total)
T2730 001:229 JLINK_WriteReg(R8, 0x00000000)  returns 0x00 (0000ms, 0805ms total)
T2730 001:229 JLINK_WriteReg(R9, 0x10000178)  returns 0x00 (0000ms, 0805ms total)
T2730 001:229 JLINK_WriteReg(R10, 0x00000000)  returns 0x00 (0000ms, 0805ms total)
T2730 001:229 JLINK_WriteReg(R11, 0x00000000)  returns 0x00 (0000ms, 0805ms total)
T2730 001:229 JLINK_WriteReg(R12, 0x00000000)  returns 0x00 (0000ms, 0805ms total)
T2730 001:229 JLINK_WriteReg(R13 (SP), 0x10004000)  returns 0x00 (0000ms, 0805ms total)
T2730 001:229 JLINK_WriteReg(R14, 0x10000001)  returns 0x00 (0001ms, 0806ms total)
T2730 001:230 JLINK_WriteReg(R15 (PC), 0x10000020)  returns 0x00 (0000ms, 0806ms total)
T2730 001:230 JLINK_WriteReg(XPSR, 0x01000000)  returns 0x00 (0000ms, 0806ms total)
T2730 001:230 JLINK_WriteReg(MSP, 0x10004000)  returns 0x00 (0000ms, 0806ms total)
T2730 001:230 JLINK_WriteReg(PSP, 0x10004000)  returns 0x00 (0000ms, 0806ms total)
T2730 001:230 JLINK_WriteReg(CFBP, 0x00000000)  returns 0x00 (0000ms, 0806ms total)
T2730 001:230 JLINK_SetBPEx(Addr = 0x10000000, Type = 0xFFFFFFF2)  returns 0x00000006 (0000ms, 0806ms total)
T2730 001:230 JLINK_Go() -- CPU_WriteMem(4 bytes @ 0xE0002000) (0006ms, 0812ms total)
T2730 001:236 JLINK_IsHalted()  returns TRUE (0009ms, 0821ms total)
T2730 001:245 JLINK_ReadReg(R15 (PC))  returns 0x10000000 (0000ms, 0812ms total)
T2730 001:245 JLINK_ClrBPEx(BPHandle = 0x00000006)  returns 0x00 (0000ms, 0812ms total)
T2730 001:245 JLINK_ReadReg(R0)  returns 0x00000001 (0000ms, 0812ms total)
T2730 001:245 JLINK_WriteReg(R0, 0x00004000)  returns 0x00 (0000ms, 0812ms total)
T2730 001:245 JLINK_WriteReg(R1, 0x00002000)  returns 0x00 (0000ms, 0812ms total)
T2730 001:245 JLINK_WriteReg(R2, 0x000000FF)  returns 0x00 (0000ms, 0812ms total)
T2730 001:245 JLINK_WriteReg(R3, 0x00000000)  returns 0x00 (0000ms, 0812ms total)
T2730 001:245 JLINK_WriteReg(R4, 0x00000000)  returns 0x00 (0000ms, 0812ms total)
T2730 001:245 JLINK_WriteReg(R5, 0x00000000)  returns 0x00 (0001ms, 0813ms total)
T2730 001:246 JLINK_WriteReg(R6, 0x00000000)  returns 0x00 (0000ms, 0813ms total)
T2730 001:246 JLINK_WriteReg(R7, 0x00000000)  returns 0x00 (0000ms, 0813ms total)
T2730 001:246 JLINK_WriteReg(R8, 0x00000000)  returns 0x00 (0000ms, 0813ms total)
T2730 001:246 JLINK_WriteReg(R9, 0x10000178)  returns 0x00 (0000ms, 0813ms total)
T2730 001:246 JLINK_WriteReg(R10, 0x00000000)  returns 0x00 (0000ms, 0813ms total)
T2730 001:246 JLINK_WriteReg(R11, 0x00000000)  returns 0x00 (0000ms, 0813ms total)
T2730 001:246 JLINK_WriteReg(R12, 0x00000000)  returns 0x00 (0000ms, 0813ms total)
T2730 001:246 JLINK_WriteReg(R13 (SP), 0x10004000)  returns 0x00 (0000ms, 0813ms total)
T2730 001:246 JLINK_WriteReg(R14, 0x10000001)  returns 0x00 (0000ms, 0813ms total)
T2730 001:246 JLINK_WriteReg(R15 (PC), 0x1000005E)  returns 0x00 (0000ms, 0813ms total)
T2730 001:246 JLINK_WriteReg(XPSR, 0x01000000)  returns 0x00 (0000ms, 0813ms total)
T2730 001:246 JLINK_WriteReg(MSP, 0x10004000)  returns 0x00 (0000ms, 0813ms total)
T2730 001:246 JLINK_WriteReg(PSP, 0x10004000)  returns 0x00 (0000ms, 0813ms total)
T2730 001:246 JLINK_WriteReg(CFBP, 0x00000000)  returns 0x00 (0000ms, 0813ms total)
T2730 001:246 JLINK_SetBPEx(Addr = 0x10000000, Type = 0xFFFFFFF2)  returns 0x00000007 (0000ms, 0813ms total)
T2730 001:246 JLINK_Go() -- CPU_WriteMem(4 bytes @ 0xE0002000) (0006ms, 0819ms total)
T2730 001:252 JLINK_IsHalted()  returns FALSE (0002ms, 0821ms total)
T2730 001:263 JLINK_IsHalted()  returns FALSE (0001ms, 0820ms total)
T2730 001:265 JLINK_IsHalted()  returns FALSE (0001ms, 0820ms total)
T2730 001:267 JLINK_IsHalted()  returns TRUE (0008ms, 0827ms total)
T2730 001:275 JLINK_ReadReg(R15 (PC))  returns 0x10000000 (0000ms, 0819ms total)
T2730 001:275 JLINK_ClrBPEx(BPHandle = 0x00000007)  returns 0x00 (0000ms, 0819ms total)
T2730 001:275 JLINK_ReadReg(R0)  returns 0x00000000 (0001ms, 0820ms total)
T2730 001:277 JLINK_WriteReg(R0, 0x00006000)  returns 0x00 (0000ms, 0820ms total)
T2730 001:277 JLINK_WriteReg(R1, 0x00002000)  returns 0x00 (0000ms, 0820ms total)
T2730 001:277 JLINK_WriteReg(R2, 0x000000FF)  returns 0x00 (0000ms, 0820ms total)
T2730 001:277 JLINK_WriteReg(R3, 0x00000000)  returns 0x00 (0000ms, 0820ms total)
T2730 001:277 JLINK_WriteReg(R4, 0x00000000)  returns 0x00 (0000ms, 0820ms total)
T2730 001:278 JLINK_WriteReg(R5, 0x00000000)  returns 0x00 (0000ms, 0820ms total)
T2730 001:278 JLINK_WriteReg(R6, 0x00000000)  returns 0x00 (0000ms, 0820ms total)
T2730 001:278 JLINK_WriteReg(R7, 0x00000000)  returns 0x00 (0000ms, 0820ms total)
T2730 001:278 JLINK_WriteReg(R8, 0x00000000)  returns 0x00 (0000ms, 0820ms total)
T2730 001:278 JLINK_WriteReg(R9, 0x10000178)  returns 0x00 (0000ms, 0820ms total)
T2730 001:278 JLINK_WriteReg(R10, 0x00000000)  returns 0x00 (0000ms, 0820ms total)
T2730 001:278 JLINK_WriteReg(R11, 0x00000000)  returns 0x00 (0000ms, 0820ms total)
T2730 001:278 JLINK_WriteReg(R12, 0x00000000)  returns 0x00 (0001ms, 0821ms total)
T2730 001:279 JLINK_WriteReg(R13 (SP), 0x10004000)  returns 0x00 (0000ms, 0821ms total)
T2730 001:279 JLINK_WriteReg(R14, 0x10000001)  returns 0x00 (0000ms, 0821ms total)
T2730 001:279 JLINK_WriteReg(R15 (PC), 0x10000020)  returns 0x00 (0000ms, 0821ms total)
T2730 001:279 JLINK_WriteReg(XPSR, 0x01000000)  returns 0x00 (0000ms, 0821ms total)
T2730 001:279 JLINK_WriteReg(MSP, 0x10004000)  returns 0x00 (0000ms, 0821ms total)
T2730 001:279 JLINK_WriteReg(PSP, 0x10004000)  returns 0x00 (0000ms, 0821ms total)
T2730 001:280 JLINK_WriteReg(CFBP, 0x00000000)  returns 0x00 (0000ms, 0822ms total)
T2730 001:280 JLINK_SetBPEx(Addr = 0x10000000, Type = 0xFFFFFFF2)  returns 0x00000008 (0000ms, 0822ms total)
T2730 001:280 JLINK_Go() -- CPU_WriteMem(4 bytes @ 0xE0002000) (0006ms, 0828ms total)
T2730 001:286 JLINK_IsHalted()  returns TRUE (0009ms, 0837ms total)
T2730 001:295 JLINK_ReadReg(R15 (PC))  returns 0x10000000 (0000ms, 0828ms total)
T2730 001:295 JLINK_ClrBPEx(BPHandle = 0x00000008)  returns 0x00 (0000ms, 0828ms total)
T2730 001:295 JLINK_ReadReg(R0)  returns 0x00000001 (0000ms, 0828ms total)
T2730 001:295 JLINK_WriteReg(R0, 0x00006000)  returns 0x00 (0000ms, 0828ms total)
T2730 001:295 JLINK_WriteReg(R1, 0x00002000)  returns 0x00 (0000ms, 0828ms total)
T2730 001:295 JLINK_WriteReg(R2, 0x000000FF)  returns 0x00 (0000ms, 0828ms total)
T2730 001:295 JLINK_WriteReg(R3, 0x00000000)  returns 0x00 (0000ms, 0828ms total)
T2730 001:296 JLINK_WriteReg(R4, 0x00000000)  returns 0x00 (0000ms, 0828ms total)
T2730 001:296 JLINK_WriteReg(R5, 0x00000000)  returns 0x00 (0000ms, 0828ms total)
T2730 001:296 JLINK_WriteReg(R6, 0x00000000)  returns 0x00 (0000ms, 0828ms total)
T2730 001:296 JLINK_WriteReg(R7, 0x00000000)  returns 0x00 (0000ms, 0828ms total)
T2730 001:296 JLINK_WriteReg(R8, 0x00000000)  returns 0x00 (0000ms, 0828ms total)
T2730 001:296 JLINK_WriteReg(R9, 0x10000178)  returns 0x00 (0000ms, 0828ms total)
T2730 001:296 JLINK_WriteReg(R10, 0x00000000)  returns 0x00 (0000ms, 0828ms total)
T2730 001:296 JLINK_WriteReg(R11, 0x00000000)  returns 0x00 (0000ms, 0828ms total)
T2730 001:296 JLINK_WriteReg(R12, 0x00000000)  returns 0x00 (0000ms, 0828ms total)
T2730 001:296 JLINK_WriteReg(R13 (SP), 0x10004000)  returns 0x00 (0000ms, 0828ms total)
T2730 001:296 JLINK_WriteReg(R14, 0x10000001)  returns 0x00 (0000ms, 0828ms total)
T2730 001:296 JLINK_WriteReg(R15 (PC), 0x1000005E)  returns 0x00 (0000ms, 0828ms total)
T2730 001:296 JLINK_WriteReg(XPSR, 0x01000000)  returns 0x00 (0000ms, 0828ms total)
T2730 001:296 JLINK_WriteReg(MSP, 0x10004000)  returns 0x00 (0001ms, 0829ms total)
T2730 001:297 JLINK_WriteReg(PSP, 0x10004000)  returns 0x00 (0000ms, 0829ms total)
T2730 001:297 JLINK_WriteReg(CFBP, 0x00000000)  returns 0x00 (0000ms, 0829ms total)
T2730 001:297 JLINK_SetBPEx(Addr = 0x10000000, Type = 0xFFFFFFF2)  returns 0x00000009 (0000ms, 0829ms total)
T2730 001:297 JLINK_Go() -- CPU_WriteMem(4 bytes @ 0xE0002000) (0005ms, 0834ms total)
T2730 001:302 JLINK_IsHalted()  returns FALSE (0002ms, 0836ms total)
T2730 001:307 JLINK_IsHalted()  returns FALSE (0001ms, 0835ms total)
T2730 001:309 JLINK_IsHalted()  returns FALSE (0001ms, 0835ms total)
T2730 001:311 JLINK_IsHalted()  returns FALSE (0001ms, 0835ms total)
T2730 001:313 JLINK_IsHalted()  returns FALSE (0001ms, 0835ms total)
T2730 001:315 JLINK_IsHalted()  returns FALSE (0001ms, 0835ms total)
T2730 001:317 JLINK_IsHalted()  returns TRUE (0008ms, 0842ms total)
T2730 001:325 JLINK_ReadReg(R15 (PC))  returns 0x10000000 (0000ms, 0834ms total)
T2730 001:325 JLINK_ClrBPEx(BPHandle = 0x00000009)  returns 0x00 (0000ms, 0834ms total)
T2730 001:325 JLINK_ReadReg(R0)  returns 0x00000000 (0000ms, 0834ms total)
T2730 001:326 JLINK_WriteReg(R0, 0x00008000)  returns 0x00 (0000ms, 0834ms total)
T2730 001:326 JLINK_WriteReg(R1, 0x00002000)  returns 0x00 (0000ms, 0834ms total)
T2730 001:326 JLINK_WriteReg(R2, 0x000000FF)  returns 0x00 (0000ms, 0834ms total)
T2730 001:326 JLINK_WriteReg(R3, 0x00000000)  returns 0x00 (0000ms, 0834ms total)
T2730 001:326 JLINK_WriteReg(R4, 0x00000000)  returns 0x00 (0001ms, 0835ms total)
T2730 001:327 JLINK_WriteReg(R5, 0x00000000)  returns 0x00 (0000ms, 0835ms total)
T2730 001:327 JLINK_WriteReg(R6, 0x00000000)  returns 0x00 (0000ms, 0835ms total)
T2730 001:327 JLINK_WriteReg(R7, 0x00000000)  returns 0x00 (0000ms, 0835ms total)
T2730 001:327 JLINK_WriteReg(R8, 0x00000000)  returns 0x00 (0000ms, 0835ms total)
T2730 001:327 JLINK_WriteReg(R9, 0x10000178)  returns 0x00 (0000ms, 0835ms total)
T2730 001:327 JLINK_WriteReg(R10, 0x00000000)  returns 0x00 (0000ms, 0835ms total)
T2730 001:327 JLINK_WriteReg(R11, 0x00000000)  returns 0x00 (0000ms, 0835ms total)
T2730 001:327 JLINK_WriteReg(R12, 0x00000000)  returns 0x00 (0000ms, 0835ms total)
T2730 001:327 JLINK_WriteReg(R13 (SP), 0x10004000)  returns 0x00 (0000ms, 0835ms total)
T2730 001:327 JLINK_WriteReg(R14, 0x10000001)  returns 0x00 (0000ms, 0835ms total)
T2730 001:327 JLINK_WriteReg(R15 (PC), 0x10000020)  returns 0x00 (0000ms, 0835ms total)
T2730 001:327 JLINK_WriteReg(XPSR, 0x01000000)  returns 0x00 (0000ms, 0835ms total)
T2730 001:327 JLINK_WriteReg(MSP, 0x10004000)  returns 0x00 (0001ms, 0836ms total)
T2730 001:328 JLINK_WriteReg(PSP, 0x10004000)  returns 0x00 (0000ms, 0836ms total)
T2730 001:328 JLINK_WriteReg(CFBP, 0x00000000)  returns 0x00 (0000ms, 0836ms total)
T2730 001:328 JLINK_SetBPEx(Addr = 0x10000000, Type = 0xFFFFFFF2)  returns 0x0000000A (0000ms, 0836ms total)
T2730 001:328 JLINK_Go() -- CPU_WriteMem(4 bytes @ 0xE0002000) (0006ms, 0842ms total)
T2730 001:334 JLINK_IsHalted()  returns TRUE (0009ms, 0851ms total)
T2730 001:343 JLINK_ReadReg(R15 (PC))  returns 0x10000000 (0000ms, 0842ms total)
T2730 001:343 JLINK_ClrBPEx(BPHandle = 0x0000000A)  returns 0x00 (0000ms, 0842ms total)
T2730 001:343 JLINK_ReadReg(R0)  returns 0x00000001 (0000ms, 0842ms total)
T2730 001:343 JLINK_WriteReg(R0, 0x00008000)  returns 0x00 (0001ms, 0843ms total)
T2730 001:344 JLINK_WriteReg(R1, 0x00002000)  returns 0x00 (0000ms, 0843ms total)
T2730 001:344 JLINK_WriteReg(R2, 0x000000FF)  returns 0x00 (0000ms, 0843ms total)
T2730 001:344 JLINK_WriteReg(R3, 0x00000000)  returns 0x00 (0000ms, 0843ms total)
T2730 001:344 JLINK_WriteReg(R4, 0x00000000)  returns 0x00 (0000ms, 0843ms total)
T2730 001:344 JLINK_WriteReg(R5, 0x00000000)  returns 0x00 (0000ms, 0843ms total)
T2730 001:344 JLINK_WriteReg(R6, 0x00000000)  returns 0x00 (0001ms, 0844ms total)
T2730 001:345 JLINK_WriteReg(R7, 0x00000000)  returns 0x00 (0000ms, 0844ms total)
T2730 001:345 JLINK_WriteReg(R8, 0x00000000)  returns 0x00 (0000ms, 0844ms total)
T2730 001:345 JLINK_WriteReg(R9, 0x10000178)  returns 0x00 (0000ms, 0844ms total)
T2730 001:345 JLINK_WriteReg(R10, 0x00000000)  returns 0x00 (0000ms, 0844ms total)
T2730 001:345 JLINK_WriteReg(R11, 0x00000000)  returns 0x00 (0001ms, 0845ms total)
T2730 001:346 JLINK_WriteReg(R12, 0x00000000)  returns 0x00 (0000ms, 0845ms total)
T2730 001:346 JLINK_WriteReg(R13 (SP), 0x10004000)  returns 0x00 (0000ms, 0845ms total)
T2730 001:346 JLINK_WriteReg(R14, 0x10000001)  returns 0x00 (0000ms, 0845ms total)
T2730 001:346 JLINK_WriteReg(R15 (PC), 0x1000005E)  returns 0x00 (0000ms, 0845ms total)
T2730 001:346 JLINK_WriteReg(XPSR, 0x01000000)  returns 0x00 (0001ms, 0846ms total)
T2730 001:347 JLINK_WriteReg(MSP, 0x10004000)  returns 0x00 (0000ms, 0846ms total)
T2730 001:347 JLINK_WriteReg(PSP, 0x10004000)  returns 0x00 (0000ms, 0846ms total)
T2730 001:347 JLINK_WriteReg(CFBP, 0x00000000)  returns 0x00 (0000ms, 0846ms total)
T2730 001:347 JLINK_SetBPEx(Addr = 0x10000000, Type = 0xFFFFFFF2)  returns 0x0000000B (0000ms, 0846ms total)
T2730 001:347 JLINK_Go() -- CPU_WriteMem(4 bytes @ 0xE0002000) (0006ms, 0852ms total)
T2730 001:353 JLINK_IsHalted()  returns FALSE (0002ms, 0854ms total)
T2730 001:375 JLINK_IsHalted()  returns TRUE (0008ms, 0860ms total)
T2730 001:383 JLINK_ReadReg(R15 (PC))  returns 0x10000000 (0000ms, 0852ms total)
T2730 001:383 JLINK_ClrBPEx(BPHandle = 0x0000000B)  returns 0x00 (0000ms, 0852ms total)
T2730 001:383 JLINK_ReadReg(R0)  returns 0x00000000 (0000ms, 0852ms total)
T2730 001:385 JLINK_WriteReg(R0, 0x0000A000)  returns 0x00 (0000ms, 0852ms total)
T2730 001:385 JLINK_WriteReg(R1, 0x00002000)  returns 0x00 (0000ms, 0852ms total)
T2730 001:385 JLINK_WriteReg(R2, 0x000000FF)  returns 0x00 (0000ms, 0852ms total)
T2730 001:385 JLINK_WriteReg(R3, 0x00000000)  returns 0x00 (0000ms, 0852ms total)
T2730 001:385 JLINK_WriteReg(R4, 0x00000000)  returns 0x00 (0000ms, 0852ms total)
T2730 001:385 JLINK_WriteReg(R5, 0x00000000)  returns 0x00 (0000ms, 0852ms total)
T2730 001:385 JLINK_WriteReg(R6, 0x00000000)  returns 0x00 (0000ms, 0852ms total)
T2730 001:385 JLINK_WriteReg(R7, 0x00000000)  returns 0x00 (0001ms, 0853ms total)
T2730 001:386 JLINK_WriteReg(R8, 0x00000000)  returns 0x00 (0000ms, 0853ms total)
T2730 001:386 JLINK_WriteReg(R9, 0x10000178)  returns 0x00 (0000ms, 0853ms total)
T2730 001:386 JLINK_WriteReg(R10, 0x00000000)  returns 0x00 (0000ms, 0853ms total)
T2730 001:386 JLINK_WriteReg(R11, 0x00000000)  returns 0x00 (0000ms, 0853ms total)
T2730 001:386 JLINK_WriteReg(R12, 0x00000000)  returns 0x00 (0000ms, 0853ms total)
T2730 001:386 JLINK_WriteReg(R13 (SP), 0x10004000)  returns 0x00 (0000ms, 0853ms total)
T2730 001:386 JLINK_WriteReg(R14, 0x10000001)  returns 0x00 (0000ms, 0853ms total)
T2730 001:386 JLINK_WriteReg(R15 (PC), 0x10000020)  returns 0x00 (0000ms, 0853ms total)
T2730 001:386 JLINK_WriteReg(XPSR, 0x01000000)  returns 0x00 (0000ms, 0853ms total)
T2730 001:386 JLINK_WriteReg(MSP, 0x10004000)  returns 0x00 (0000ms, 0853ms total)
T2730 001:387 JLINK_WriteReg(PSP, 0x10004000)  returns 0x00 (0000ms, 0854ms total)
T2730 001:387 JLINK_WriteReg(CFBP, 0x00000000)  returns 0x00 (0000ms, 0854ms total)
T2730 001:387 JLINK_SetBPEx(Addr = 0x10000000, Type = 0xFFFFFFF2)  returns 0x0000000C (0000ms, 0854ms total)
T2730 001:387 JLINK_Go() -- CPU_WriteMem(4 bytes @ 0xE0002000) (0006ms, 0860ms total)
T2730 001:393 JLINK_IsHalted()  returns TRUE (0009ms, 0869ms total)
T2730 001:402 JLINK_ReadReg(R15 (PC))  returns 0x10000000 (0000ms, 0860ms total)
T2730 001:402 JLINK_ClrBPEx(BPHandle = 0x0000000C)  returns 0x00 (0000ms, 0860ms total)
T2730 001:402 JLINK_ReadReg(R0)  returns 0x00000001 (0000ms, 0860ms total)
T2730 001:402 JLINK_WriteReg(R0, 0x0000A000)  returns 0x00 (0000ms, 0860ms total)
T2730 001:402 JLINK_WriteReg(R1, 0x00002000)  returns 0x00 (0000ms, 0860ms total)
T2730 001:402 JLINK_WriteReg(R2, 0x000000FF)  returns 0x00 (0001ms, 0861ms total)
T2730 001:403 JLINK_WriteReg(R3, 0x00000000)  returns 0x00 (0000ms, 0861ms total)
T2730 001:403 JLINK_WriteReg(R4, 0x00000000)  returns 0x00 (0000ms, 0861ms total)
T2730 001:403 JLINK_WriteReg(R5, 0x00000000)  returns 0x00 (0000ms, 0861ms total)
T2730 001:403 JLINK_WriteReg(R6, 0x00000000)  returns 0x00 (0000ms, 0861ms total)
T2730 001:403 JLINK_WriteReg(R7, 0x00000000)  returns 0x00 (0000ms, 0861ms total)
T2730 001:403 JLINK_WriteReg(R8, 0x00000000)  returns 0x00 (0000ms, 0861ms total)
T2730 001:403 JLINK_WriteReg(R9, 0x10000178)  returns 0x00 (0000ms, 0861ms total)
T2730 001:403 JLINK_WriteReg(R10, 0x00000000)  returns 0x00 (0000ms, 0861ms total)
T2730 001:403 JLINK_WriteReg(R11, 0x00000000)  returns 0x00 (0000ms, 0861ms total)
T2730 001:403 JLINK_WriteReg(R12, 0x00000000)  returns 0x00 (0001ms, 0862ms total)
T2730 001:404 JLINK_WriteReg(R13 (SP), 0x10004000)  returns 0x00 (0000ms, 0862ms total)
T2730 001:404 JLINK_WriteReg(R14, 0x10000001)  returns 0x00 (0000ms, 0862ms total)
T2730 001:404 JLINK_WriteReg(R15 (PC), 0x1000005E)  returns 0x00 (0000ms, 0862ms total)
T2730 001:404 JLINK_WriteReg(XPSR, 0x01000000)  returns 0x00 (0000ms, 0862ms total)
T2730 001:404 JLINK_WriteReg(MSP, 0x10004000)  returns 0x00 (0000ms, 0862ms total)
T2730 001:404 JLINK_WriteReg(PSP, 0x10004000)  returns 0x00 (0000ms, 0862ms total)
T2730 001:404 JLINK_WriteReg(CFBP, 0x00000000)  returns 0x00 (0000ms, 0862ms total)
T2730 001:404 JLINK_SetBPEx(Addr = 0x10000000, Type = 0xFFFFFFF2)  returns 0x0000000D (0000ms, 0862ms total)
T2730 001:404 JLINK_Go() -- CPU_WriteMem(4 bytes @ 0xE0002000) (0006ms, 0868ms total)
T2730 001:410 JLINK_IsHalted()  returns FALSE (0002ms, 0870ms total)
T2730 001:413 JLINK_IsHalted()  returns FALSE (0001ms, 0869ms total)
T2730 001:415 JLINK_IsHalted()  returns FALSE (0001ms, 0869ms total)
T2730 001:417 JLINK_IsHalted()  returns FALSE (0001ms, 0869ms total)
T2730 001:419 JLINK_IsHalted()  returns FALSE (0001ms, 0869ms total)
T2730 001:421 JLINK_IsHalted()  returns FALSE (0001ms, 0869ms total)
T2730 001:423 JLINK_IsHalted()  returns FALSE (0001ms, 0869ms total)
T2730 001:425 JLINK_IsHalted()  returns TRUE (0008ms, 0876ms total)
T2730 001:433 JLINK_ReadReg(R15 (PC))  returns 0x10000000 (0000ms, 0868ms total)
T2730 001:433 JLINK_ClrBPEx(BPHandle = 0x0000000D)  returns 0x00 (0000ms, 0868ms total)
T2730 001:433 JLINK_ReadReg(R0)  returns 0x00000000 (0000ms, 0868ms total)
T2730 001:434 JLINK_WriteReg(R0, 0x0000C000)  returns 0x00 (0000ms, 0868ms total)
T2730 001:434 JLINK_WriteReg(R1, 0x00002000)  returns 0x00 (0000ms, 0868ms total)
T2730 001:434 JLINK_WriteReg(R2, 0x000000FF)  returns 0x00 (0000ms, 0868ms total)
T2730 001:434 JLINK_WriteReg(R3, 0x00000000)  returns 0x00 (0000ms, 0868ms total)
T2730 001:434 JLINK_WriteReg(R4, 0x00000000)  returns 0x00 (0000ms, 0868ms total)
T2730 001:435 JLINK_WriteReg(R5, 0x00000000)  returns 0x00 (0000ms, 0869ms total)
T2730 001:435 JLINK_WriteReg(R6, 0x00000000)  returns 0x00 (0000ms, 0869ms total)
T2730 001:435 JLINK_WriteReg(R7, 0x00000000)  returns 0x00 (0000ms, 0869ms total)
T2730 001:435 JLINK_WriteReg(R8, 0x00000000)  returns 0x00 (0000ms, 0869ms total)
T2730 001:435 JLINK_WriteReg(R9, 0x10000178)  returns 0x00 (0000ms, 0869ms total)
T2730 001:435 JLINK_WriteReg(R10, 0x00000000)  returns 0x00 (0000ms, 0869ms total)
T2730 001:435 JLINK_WriteReg(R11, 0x00000000)  returns 0x00 (0000ms, 0869ms total)
T2730 001:435 JLINK_WriteReg(R12, 0x00000000)  returns 0x00 (0000ms, 0869ms total)
T2730 001:435 JLINK_WriteReg(R13 (SP), 0x10004000)  returns 0x00 (0000ms, 0869ms total)
T2730 001:435 JLINK_WriteReg(R14, 0x10000001)  returns 0x00 (0001ms, 0870ms total)
T2730 001:436 JLINK_WriteReg(R15 (PC), 0x10000020)  returns 0x00 (0000ms, 0870ms total)
T2730 001:436 JLINK_WriteReg(XPSR, 0x01000000)  returns 0x00 (0000ms, 0870ms total)
T2730 001:436 JLINK_WriteReg(MSP, 0x10004000)  returns 0x00 (0000ms, 0870ms total)
T2730 001:436 JLINK_WriteReg(PSP, 0x10004000)  returns 0x00 (0000ms, 0870ms total)
T2730 001:436 JLINK_WriteReg(CFBP, 0x00000000)  returns 0x00 (0000ms, 0870ms total)
T2730 001:436 JLINK_SetBPEx(Addr = 0x10000000, Type = 0xFFFFFFF2)  returns 0x0000000E (0000ms, 0870ms total)
T2730 001:436 JLINK_Go() -- CPU_WriteMem(4 bytes @ 0xE0002000) (0006ms, 0876ms total)
T2730 001:442 JLINK_IsHalted()  returns TRUE (0009ms, 0885ms total)
T2730 001:451 JLINK_ReadReg(R15 (PC))  returns 0x10000000 (0000ms, 0876ms total)
T2730 001:451 JLINK_ClrBPEx(BPHandle = 0x0000000E)  returns 0x00 (0001ms, 0877ms total)
T2730 001:452 JLINK_ReadReg(R0)  returns 0x00000001 (0000ms, 0877ms total)
T2730 001:452 JLINK_WriteReg(R0, 0x0000C000)  returns 0x00 (0000ms, 0877ms total)
T2730 001:452 JLINK_WriteReg(R1, 0x00002000)  returns 0x00 (0000ms, 0877ms total)
T2730 001:452 JLINK_WriteReg(R2, 0x000000FF)  returns 0x00 (0000ms, 0877ms total)
T2730 001:452 JLINK_WriteReg(R3, 0x00000000)  returns 0x00 (0000ms, 0877ms total)
T2730 001:452 JLINK_WriteReg(R4, 0x00000000)  returns 0x00 (0000ms, 0877ms total)
T2730 001:452 JLINK_WriteReg(R5, 0x00000000)  returns 0x00 (0000ms, 0877ms total)
T2730 001:452 JLINK_WriteReg(R6, 0x00000000)  returns 0x00 (0000ms, 0877ms total)
T2730 001:452 JLINK_WriteReg(R7, 0x00000000)  returns 0x00 (0000ms, 0877ms total)
T2730 001:452 JLINK_WriteReg(R8, 0x00000000)  returns 0x00 (0001ms, 0878ms total)
T2730 001:453 JLINK_WriteReg(R9, 0x10000178)  returns 0x00 (0000ms, 0878ms total)
T2730 001:453 JLINK_WriteReg(R10, 0x00000000)  returns 0x00 (0000ms, 0878ms total)
T2730 001:453 JLINK_WriteReg(R11, 0x00000000)  returns 0x00 (0000ms, 0878ms total)
T2730 001:453 JLINK_WriteReg(R12, 0x00000000)  returns 0x00 (0000ms, 0878ms total)
T2730 001:453 JLINK_WriteReg(R13 (SP), 0x10004000)  returns 0x00 (0000ms, 0878ms total)
T2730 001:453 JLINK_WriteReg(R14, 0x10000001)  returns 0x00 (0000ms, 0878ms total)
T2730 001:453 JLINK_WriteReg(R15 (PC), 0x1000005E)  returns 0x00 (0000ms, 0878ms total)
T2730 001:453 JLINK_WriteReg(XPSR, 0x01000000)  returns 0x00 (0000ms, 0878ms total)
T2730 001:453 JLINK_WriteReg(MSP, 0x10004000)  returns 0x00 (0000ms, 0878ms total)
T2730 001:453 JLINK_WriteReg(PSP, 0x10004000)  returns 0x00 (0001ms, 0879ms total)
T2730 001:454 JLINK_WriteReg(CFBP, 0x00000000)  returns 0x00 (0000ms, 0879ms total)
T2730 001:454 JLINK_SetBPEx(Addr = 0x10000000, Type = 0xFFFFFFF2)  returns 0x0000000F (0000ms, 0879ms total)
T2730 001:454 JLINK_Go() -- CPU_WriteMem(4 bytes @ 0xE0002000) (0005ms, 0884ms total)
T2730 001:459 JLINK_IsHalted()  returns FALSE (0001ms, 0885ms total)
T2730 001:474 JLINK_IsHalted()  returns TRUE (0008ms, 0892ms total)
T2730 001:482 JLINK_ReadReg(R15 (PC))  returns 0x10000000 (0000ms, 0884ms total)
T2730 001:482 JLINK_ClrBPEx(BPHandle = 0x0000000F)  returns 0x00 (0000ms, 0884ms total)
T2730 001:482 JLINK_ReadReg(R0)  returns 0x00000000 (0000ms, 0884ms total)
T2730 001:483 JLINK_WriteReg(R0, 0x00000001)  returns 0x00 (0000ms, 0884ms total)
T2730 001:483 JLINK_WriteReg(R1, 0x00002000)  returns 0x00 (0000ms, 0884ms total)
T2730 001:483 JLINK_WriteReg(R2, 0x000000FF)  returns 0x00 (0000ms, 0884ms total)
T2730 001:483 JLINK_WriteReg(R3, 0x00000000)  returns 0x00 (0001ms, 0885ms total)
T2730 001:484 JLINK_WriteReg(R4, 0x00000000)  returns 0x00 (0000ms, 0885ms total)
T2730 001:484 JLINK_WriteReg(R5, 0x00000000)  returns 0x00 (0000ms, 0885ms total)
T2730 001:484 JLINK_WriteReg(R6, 0x00000000)  returns 0x00 (0000ms, 0885ms total)
T2730 001:484 JLINK_WriteReg(R7, 0x00000000)  returns 0x00 (0000ms, 0885ms total)
T2730 001:484 JLINK_WriteReg(R8, 0x00000000)  returns 0x00 (0000ms, 0885ms total)
T2730 001:484 JLINK_WriteReg(R9, 0x10000178)  returns 0x00 (0000ms, 0885ms total)
T2730 001:484 JLINK_WriteReg(R10, 0x00000000)  returns 0x00 (0000ms, 0885ms total)
T2730 001:484 JLINK_WriteReg(R11, 0x00000000)  returns 0x00 (0000ms, 0885ms total)
T2730 001:484 JLINK_WriteReg(R12, 0x00000000)  returns 0x00 (0000ms, 0885ms total)
T2730 001:485 JLINK_WriteReg(R13 (SP), 0x10004000)  returns 0x00 (0000ms, 0885ms total)
T2730 001:485 JLINK_WriteReg(R14, 0x10000001)  returns 0x00 (0000ms, 0885ms total)
T2730 001:485 JLINK_WriteReg(R15 (PC), 0x1000003C)  returns 0x00 (0000ms, 0885ms total)
T2730 001:485 JLINK_WriteReg(XPSR, 0x01000000)  returns 0x00 (0000ms, 0885ms total)
T2730 001:485 JLINK_WriteReg(MSP, 0x10004000)  returns 0x00 (0000ms, 0885ms total)
T2730 001:485 JLINK_WriteReg(PSP, 0x10004000)  returns 0x00 (0000ms, 0885ms total)
T2730 001:485 JLINK_WriteReg(CFBP, 0x00000000)  returns 0x00 (0000ms, 0885ms total)
T2730 001:485 JLINK_SetBPEx(Addr = 0x10000000, Type = 0xFFFFFFF2)  returns 0x00000010 (0000ms, 0885ms total)
T2730 001:485 JLINK_Go() -- CPU_WriteMem(4 bytes @ 0xE0002000) (0007ms, 0892ms total)
T2730 001:492 JLINK_IsHalted()  returns TRUE (0009ms, 0901ms total)
T2730 001:501 JLINK_ReadReg(R15 (PC))  returns 0x10000000 (0000ms, 0892ms total)
T2730 001:501 JLINK_ClrBPEx(BPHandle = 0x00000010)  returns 0x00 (0000ms, 0892ms total)
T2730 001:501 JLINK_ReadReg(R0)  returns 0x00000000 (0000ms, 0892ms total)
T2730 001:560 JLINK_WriteMem(0x10000000, 0x019C Bytes, ...) - Data: 00 BE 0A E0 0D 78 2D 06 68 40 08 24 40 00 00 D3 ... -- CPU_WriteMem(412 bytes @ 0x10000000)  returns 0x19C (0014ms, 0906ms total)
T2730 001:574 JLINK_WriteReg(R0, 0x00000000)  returns 0x00 (0000ms, 0906ms total)
T2730 001:574 JLINK_WriteReg(R1, 0x02DC6C00)  returns 0x00 (0001ms, 0907ms total)
T2730 001:575 JLINK_WriteReg(R2, 0x00000002)  returns 0x00 (0000ms, 0907ms total)
T2730 001:575 JLINK_WriteReg(R3, 0x00000000)  returns 0x00 (0000ms, 0907ms total)
T2730 001:575 JLINK_WriteReg(R4, 0x00000000)  returns 0x00 (0000ms, 0907ms total)
T2730 001:575 JLINK_WriteReg(R5, 0x00000000)  returns 0x00 (0000ms, 0907ms total)
T2730 001:575 JLINK_WriteReg(R6, 0x00000000)  returns 0x00 (0000ms, 0907ms total)
T2730 001:575 JLINK_WriteReg(R7, 0x00000000)  returns 0x00 (0000ms, 0907ms total)
T2730 001:575 JLINK_WriteReg(R8, 0x00000000)  returns 0x00 (0000ms, 0907ms total)
T2730 001:575 JLINK_WriteReg(R9, 0x10000178)  returns 0x00 (0000ms, 0907ms total)
T2730 001:575 JLINK_WriteReg(R10, 0x00000000)  returns 0x00 (0001ms, 0908ms total)
T2730 001:576 JLINK_WriteReg(R11, 0x00000000)  returns 0x00 (0000ms, 0908ms total)
T2730 001:576 JLINK_WriteReg(R12, 0x00000000)  returns 0x00 (0000ms, 0908ms total)
T2730 001:576 JLINK_WriteReg(R13 (SP), 0x10004000)  returns 0x00 (0000ms, 0908ms total)
T2730 001:576 JLINK_WriteReg(R14, 0x10000001)  returns 0x00 (0000ms, 0908ms total)
T2730 001:576 JLINK_WriteReg(R15 (PC), 0x10000038)  returns 0x00 (0000ms, 0908ms total)
T2730 001:576 JLINK_WriteReg(XPSR, 0x01000000)  returns 0x00 (0000ms, 0908ms total)
T2730 001:576 JLINK_WriteReg(MSP, 0x10004000)  returns 0x00 (0000ms, 0908ms total)
T2730 001:576 JLINK_WriteReg(PSP, 0x10004000)  returns 0x00 (0000ms, 0908ms total)
T2730 001:576 JLINK_WriteReg(CFBP, 0x00000000)  returns 0x00 (0001ms, 0909ms total)
T2730 001:577 JLINK_SetBPEx(Addr = 0x10000000, Type = 0xFFFFFFF2)  returns 0x00000011 (0000ms, 0909ms total)
T2730 001:577 JLINK_Go() -- CPU_WriteMem(4 bytes @ 0xE0002000) (0005ms, 0914ms total)
T2730 001:582 JLINK_IsHalted()  returns TRUE (0009ms, 0923ms total)
T2730 001:591 JLINK_ReadReg(R15 (PC))  returns 0x10000000 (0000ms, 0914ms total)
T2730 001:591 JLINK_ClrBPEx(BPHandle = 0x00000011)  returns 0x00 (0000ms, 0914ms total)
T2730 001:591 JLINK_ReadReg(R0)  returns 0x00000000 (0000ms, 0914ms total)
T2730 001:592 JLINK_WriteMem(0x1000099C, 0x0664 Bytes, ...) - Data: 80 E6 01 10 C1 00 00 00 DD 00 00 00 A5 02 00 00 ... -- CPU_WriteMem(1636 bytes @ 0x1000099C)  returns 0x664 (0050ms, 0965ms total)
T2730 001:643 JLINK_WriteMem(0x10001000, 0x1000 Bytes, ...) - Data: 94 46 96 46 20 39 22 BF A0 E8 0C 50 A0 E8 0C 50 ... -- CPU_WriteMem(4096 bytes @ 0x10001000)  returns 0x1000 (0124ms, 1089ms total)
T2730 001:767 JLINK_WriteMem(0x10002000, 0x099C Bytes, ...) - Data: 18 D1 0A 98 A9 EB 00 00 40 1E 94 F9 05 10 48 43 ... -- CPU_WriteMem(2460 bytes @ 0x10002000)  returns 0x99C (0075ms, 1164ms total)
T2730 001:843 JLINK_WriteReg(R0, 0x00000000)  returns 0x00 (0001ms, 1165ms total)
T2730 001:844 JLINK_WriteReg(R1, 0x00002000)  returns 0x00 (0000ms, 1165ms total)
T2730 001:844 JLINK_WriteReg(R2, 0x1000099C)  returns 0x00 (0000ms, 1165ms total)
T2730 001:844 JLINK_WriteReg(R3, 0x00000000)  returns 0x00 (0000ms, 1165ms total)
T2730 001:844 JLINK_WriteReg(R4, 0x00000000)  returns 0x00 (0000ms, 1165ms total)
T2730 001:844 JLINK_WriteReg(R5, 0x00000000)  returns 0x00 (0000ms, 1165ms total)
T2730 001:844 JLINK_WriteReg(R6, 0x00000000)  returns 0x00 (0001ms, 1166ms total)
T2730 001:845 JLINK_WriteReg(R7, 0x00000000)  returns 0x00 (0000ms, 1166ms total)
T2730 001:845 JLINK_WriteReg(R8, 0x00000000)  returns 0x00 (0000ms, 1166ms total)
T2730 001:845 JLINK_WriteReg(R9, 0x10000178)  returns 0x00 (0000ms, 1166ms total)
T2730 001:845 JLINK_WriteReg(R10, 0x00000000)  returns 0x00 (0000ms, 1166ms total)
T2730 001:845 JLINK_WriteReg(R11, 0x00000000)  returns 0x00 (0000ms, 1166ms total)
T2730 001:846 JLINK_WriteReg(R12, 0x00000000)  returns 0x00 (0000ms, 1167ms total)
T2730 001:846 JLINK_WriteReg(R13 (SP), 0x10004000)  returns 0x00 (0000ms, 1167ms total)
T2730 001:846 JLINK_WriteReg(R14, 0x10000001)  returns 0x00 (0000ms, 1167ms total)
T2730 001:846 JLINK_WriteReg(R15 (PC), 0x1000007C)  returns 0x00 (0000ms, 1167ms total)
T2730 001:846 JLINK_WriteReg(XPSR, 0x01000000)  returns 0x00 (0000ms, 1167ms total)
T2730 001:846 JLINK_WriteReg(MSP, 0x10004000)  returns 0x00 (0001ms, 1168ms total)
T2730 001:847 JLINK_WriteReg(PSP, 0x10004000)  returns 0x00 (0000ms, 1168ms total)
